Freq.	V(n014)
1.00000000000000e+001	(-2.29690192777746e-001dB,-1.68540061234080e+002°)
1.00023028502082e+001	(-2.29541167448554e-001dB,-1.68544800882369e+002°)
1.00046062307284e+001	(-2.29392217139647e-001dB,-1.68549540101979e+002°)
1.00069101416826e+001	(-2.29243341827433e-001dB,-1.68554278893045e+002°)
1.00092145831930e+001	(-2.29094541488235e-001dB,-1.68559017255700e+002°)
1.00115195553817e+001	(-2.28945816098453e-001dB,-1.68563755190078e+002°)
1.00138250583710e+001	(-2.28797165634214e-001dB,-1.68568492696314e+002°)
1.00161310922831e+001	(-2.28648590072018e-001dB,-1.68573229774542e+002°)
1.00184376572403e+001	(-2.28500089388105e-001dB,-1.68577966424896e+002°)
1.00207447533648e+001	(-2.28351663558825e-001dB,-1.68582702647510e+002°)
1.00230523807790e+001	(-2.28203312560480e-001dB,-1.68587438442519e+002°)
1.00253605396052e+001	(-2.28055036369518e-001dB,-1.68592173810057e+002°)
1.00276692299659e+001	(-2.27906834962208e-001dB,-1.68596908750258e+002°)
1.00299784519833e+001	(-2.27758708314989e-001dB,-1.68601643263256e+002°)
1.00322882057800e+001	(-2.27610656404339e-001dB,-1.68606377349187e+002°)
1.00345984914784e+001	(-2.27462679206624e-001dB,-1.68611111008184e+002°)
1.00369093092010e+001	(-2.27314776697950e-001dB,-1.68615844240382e+002°)
1.00392206590702e+001	(-2.27166948855286e-001dB,-1.68620577045916e+002°)
1.00415325412088e+001	(-2.27019195654673e-001dB,-1.68625309424920e+002°)
1.00438449557391e+001	(-2.26871517072474e-001dB,-1.68630041377529e+002°)
1.00461579027839e+001	(-2.26723913085507e-001dB,-1.68634772903878e+002°)
1.00484713824658e+001	(-2.26576383669871e-001dB,-1.68639504004101e+002°)
1.00507853949074e+001	(-2.26428928802204e-001dB,-1.68644234678333e+002°)
1.00530999402313e+001	(-2.26281548459017e-001dB,-1.68648964926709e+002°)
1.00554150185604e+001	(-2.26134242616617e-001dB,-1.68653694749364e+002°)
1.00577306300174e+001	(-2.25987011251719e-001dB,-1.68658424146432e+002°)
1.00600467747250e+001	(-2.25839854340504e-001dB,-1.68663153118050e+002°)
1.00623634528060e+001	(-2.25692771859933e-001dB,-1.68667881664350e+002°)
1.00646806643832e+001	(-2.25545763786131e-001dB,-1.68672609785470e+002°)
1.00669984095796e+001	(-2.25398830095750e-001dB,-1.68677337481543e+002°)
1.00693166885180e+001	(-2.25251970765399e-001dB,-1.68682064752705e+002°)
1.00716355013213e+001	(-2.25105185771499e-001dB,-1.68686791599091e+002°)
1.00739548481125e+001	(-2.24958475090835e-001dB,-1.68691518020836e+002°)
1.00762747290145e+001	(-2.24811838699816e-001dB,-1.68696244018075e+002°)
1.00785951441503e+001	(-2.24665276574810e-001dB,-1.68700969590944e+002°)
1.00809160936429e+001	(-2.24518788692767e-001dB,-1.68705694739578e+002°)
1.00832375776155e+001	(-2.24372375030103e-001dB,-1.68710419464111e+002°)
1.00855595961910e+001	(-2.24226035563456e-001dB,-1.68715143764681e+002°)
1.00878821494927e+001	(-2.24079770269386e-001dB,-1.68719867641422e+002°)
1.00902052376435e+001	(-2.23933579124699e-001dB,-1.68724591094469e+002°)
1.00925288607668e+001	(-2.23787462105711e-001dB,-1.68729314123958e+002°)
1.00948530189857e+001	(-2.23641419189311e-001dB,-1.68734036730025e+002°)
1.00971777124234e+001	(-2.23495450351999e-001dB,-1.68738758912805e+002°)
1.00995029412032e+001	(-2.23349555570622e-001dB,-1.68743480672434e+002°)
1.01018287054483e+001	(-2.23203734821662e-001dB,-1.68748202009047e+002°)
1.01041550052821e+001	(-2.23057988081934e-001dB,-1.68752922922780e+002°)
1.01064818408279e+001	(-2.22912315328027e-001dB,-1.68757643413769e+002°)
1.01088092122091e+001	(-2.22766716536608e-001dB,-1.68762363482150e+002°)
1.01111371195490e+001	(-2.22621191684469e-001dB,-1.68767083128058e+002°)
1.01134655629712e+001	(-2.22475740748402e-001dB,-1.68771802351630e+002°)
1.01157945425990e+001	(-2.22330363704944e-001dB,-1.68776521153000e+002°)
1.01181240585559e+001	(-2.22185060530877e-001dB,-1.68781239532307e+002°)
1.01204541109654e+001	(-2.22039831203061e-001dB,-1.68785957489684e+002°)
1.01227846999511e+001	(-2.21894675698117e-001dB,-1.68790675025268e+002°)
1.01251158256365e+001	(-2.21749593992737e-001dB,-1.68795392139196e+002°)
1.01274474881453e+001	(-2.21604586064005e-001dB,-1.68800108831604e+002°)
1.01297796876010e+001	(-2.21459651888523e-001dB,-1.68804825102626e+002°)
1.01321124241273e+001	(-2.21314791442894e-001dB,-1.68809540952401e+002°)
1.01344456978479e+001	(-2.21170004704168e-001dB,-1.68814256381063e+002°)
1.01367795088865e+001	(-2.21025291649118e-001dB,-1.68818971388750e+002°)
1.01391138573668e+001	(-2.20880652254440e-001dB,-1.68823685975597e+002°)
1.01414487434125e+001	(-2.20736086497105e-001dB,-1.68828400141741e+002°)
1.01437841671476e+001	(-2.20591594353826e-001dB,-1.68833113887319e+002°)
1.01461201286958e+001	(-2.20447175801419e-001dB,-1.68837827212466e+002°)
1.01484566281809e+001	(-2.20302830816975e-001dB,-1.68842540117319e+002°)
1.01507936657269e+001	(-2.20158559377094e-001dB,-1.68847252602015e+002°)
1.01531312414576e+001	(-2.20014361458778e-001dB,-1.68851964666690e+002°)
1.01554693554969e+001	(-2.19870237038892e-001dB,-1.68856676311480e+002°)
1.01578080079690e+001	(-2.19726186094343e-001dB,-1.68861387536523e+002°)
1.01601471989976e+001	(-2.19582208601957e-001dB,-1.68866098341956e+002°)
1.01624869287069e+001	(-2.19438304538705e-001dB,-1.68870808727914e+002°)
1.01648271972209e+001	(-2.19294473881612e-001dB,-1.68875518694534e+002°)
1.01671680046637e+001	(-2.19150716607421e-001dB,-1.68880228241954e+002°)
1.01695093511594e+001	(-2.19007032693004e-001dB,-1.68884937370310e+002°)
1.01718512368321e+001	(-2.18863422115593e-001dB,-1.68889646079739e+002°)
1.01741936618060e+001	(-2.18719884852012e-001dB,-1.68894354370377e+002°)
1.01765366262053e+001	(-2.18576420879221e-001dB,-1.68899062242363e+002°)
1.01788801301542e+001	(-2.18433030174058e-001dB,-1.68903769695832e+002°)
1.01812241737769e+001	(-2.18289712713745e-001dB,-1.68908476730922e+002°)
1.01835687571978e+001	(-2.18146468475031e-001dB,-1.68913183347770e+002°)
1.01859138805411e+001	(-2.18003297435215e-001dB,-1.68917889546513e+002°)
1.01882595439312e+001	(-2.17860199571057e-001dB,-1.68922595327288e+002°)
1.01906057474925e+001	(-2.17717174859678e-001dB,-1.68927300690232e+002°)
1.01929524913492e+001	(-2.17574223278025e-001dB,-1.68932005635483e+002°)
1.01952997756260e+001	(-2.17431344803383e-001dB,-1.68936710163177e+002°)
1.01976476004471e+001	(-2.17288539412467e-001dB,-1.68941414273452e+002°)
1.01999959659371e+001	(-2.17145807082539e-001dB,-1.68946117966446e+002°)
1.02023448722206e+001	(-2.17003147790645e-001dB,-1.68950821242296e+002°)
1.02046943194219e+001	(-2.16860561513858e-001dB,-1.68955524101138e+002°)
1.02070443076658e+001	(-2.16718048229312e-001dB,-1.68960226543111e+002°)
1.02093948370767e+001	(-2.16575607913883e-001dB,-1.68964928568352e+002°)
1.02117459077794e+001	(-2.16433240544942e-001dB,-1.68969630176999e+002°)
1.02140975198984e+001	(-2.16290946099497e-001dB,-1.68974331369189e+002°)
1.02164496735585e+001	(-2.16148724554711e-001dB,-1.68979032145059e+002°)
1.02188023688843e+001	(-2.16006575887530e-001dB,-1.68983732504749e+002°)
1.02211556060007e+001	(-2.15864500075407e-001dB,-1.68988432448394e+002°)
1.02235093850322e+001	(-2.15722497095193e-001dB,-1.68993131976133e+002°)
1.02258637061039e+001	(-2.15580566924271e-001dB,-1.68997831088103e+002°)
1.02282185693404e+001	(-2.15438709539603e-001dB,-1.69002529784443e+002°)
1.02305739748666e+001	(-2.15296924918607e-001dB,-1.69007228065290e+002°)
1.02329299228075e+001	(-2.15155213038271e-001dB,-1.69011925930782e+002°)
1.02352864132878e+001	(-2.15013573876040e-001dB,-1.69016623381057e+002°)
1.02376434464327e+001	(-2.14872007408752e-001dB,-1.69021320416253e+002°)
1.02400010223669e+001	(-2.14730513613936e-001dB,-1.69026017036507e+002°)
1.02423591412156e+001	(-2.14589092468670e-001dB,-1.69030713241959e+002°)
1.02447178031037e+001	(-2.14447743950278e-001dB,-1.69035409032746e+002°)
1.02470770081564e+001	(-2.14306468035781e-001dB,-1.69040104409006e+002°)
1.02494367564986e+001	(-2.14165264702820e-001dB,-1.69044799370877e+002°)
1.02517970482555e+001	(-2.14024133928452e-001dB,-1.69049493918498e+002°)
1.02541578835522e+001	(-2.13883075689811e-001dB,-1.69054188052006e+002°)
1.02565192625140e+001	(-2.13742089964461e-001dB,-1.69058881771540e+002°)
1.02588811852660e+001	(-2.13601176729332e-001dB,-1.69063575077239e+002°)
1.02612436519333e+001	(-2.13460335962057e-001dB,-1.69068267969240e+002°)
1.02636066626414e+001	(-2.13319567639836e-001dB,-1.69072960447682e+002°)
1.02659702175155e+001	(-2.13178871739886e-001dB,-1.69077652512704e+002°)
1.02683343166808e+001	(-2.13038248239724e-001dB,-1.69082344164443e+002°)
1.02706989602627e+001	(-2.12897697116610e-001dB,-1.69087035403038e+002°)
1.02730641483867e+001	(-2.12757218347788e-001dB,-1.69091726228629e+002°)
1.02754298811780e+001	(-2.12616811910727e-001dB,-1.69096416641352e+002°)
1.02777961587622e+001	(-2.12476477782683e-001dB,-1.69101106641348e+002°)
1.02801629812646e+001	(-2.12336215941178e-001dB,-1.69105796228755e+002°)
1.02825303488109e+001	(-2.12196026363383e-001dB,-1.69110485403711e+002°)
1.02848982615264e+001	(-2.12055909027032e-001dB,-1.69115174166354e+002°)
1.02872667195367e+001	(-2.11915863909229e-001dB,-1.69119862516825e+002°)
1.02896357229675e+001	(-2.11775890987417e-001dB,-1.69124550455262e+002°)
1.02920052719442e+001	(-2.11635990239198e-001dB,-1.69129237981802e+002°)
1.02943753665926e+001	(-2.11496161641875e-001dB,-1.69133925096587e+002°)
1.02967460070382e+001	(-2.11356405172854e-001dB,-1.69138611799753e+002°)
1.02991171934069e+001	(-2.11216720809643e-001dB,-1.69143298091441e+002°)
1.03014889258243e+001	(-2.11077108529607e-001dB,-1.69147983971788e+002°)
1.03038612044161e+001	(-2.10937568310375e-001dB,-1.69152669440935e+002°)
1.03062340293081e+001	(-2.10798100129399e-001dB,-1.69157354499021e+002°)
1.03086074006262e+001	(-2.10658703963964e-001dB,-1.69162039146183e+002°)
1.03109813184961e+001	(-2.10519379791745e-001dB,-1.69166723382562e+002°)
1.03133557830437e+001	(-2.10380127590275e-001dB,-1.69171407208297e+002°)
1.03157307943950e+001	(-2.10240947336935e-001dB,-1.69176090623527e+002°)
1.03181063526758e+001	(-2.10101839009317e-001dB,-1.69180773628391e+002°)
1.03204824580121e+001	(-2.09962802584894e-001dB,-1.69185456223028e+002°)
1.03228591105299e+001	(-2.09823838041388e-001dB,-1.69190138407578e+002°)
1.03252363103551e+001	(-2.09684945356141e-001dB,-1.69194820182181e+002°)
1.03276140576139e+001	(-2.09546124506889e-001dB,-1.69199501546974e+002°)
1.03299923524322e+001	(-2.09407375471033e-001dB,-1.69204182502099e+002°)
1.03323711949362e+001	(-2.09268698226156e-001dB,-1.69208863047695e+002°)
1.03347505852520e+001	(-2.09130092750051e-001dB,-1.69213543183900e+002°)
1.03371305235057e+001	(-2.08991559020026e-001dB,-1.69218222910855e+002°)
1.03395110098236e+001	(-2.08853097014034e-001dB,-1.69222902228699e+002°)
1.03418920443318e+001	(-2.08714706709465e-001dB,-1.69227581137571e+002°)
1.03442736271566e+001	(-2.08576388083848e-001dB,-1.69232259637613e+002°)
1.03466557584243e+001	(-2.08438141115017e-001dB,-1.69236937728962e+002°)
1.03490384382611e+001	(-2.08299965780605e-001dB,-1.69241615411759e+002°)
1.03514216667933e+001	(-2.08161862058042e-001dB,-1.69246292686144e+002°)
1.03538054441474e+001	(-2.08023829925270e-001dB,-1.69250969552256e+002°)
1.03561897704498e+001	(-2.07885869359716e-001dB,-1.69255646010236e+002°)
1.03585746458267e+001	(-2.07747980339315e-001dB,-1.69260322060223e+002°)
1.03609600704047e+001	(-2.07610162841704e-001dB,-1.69264997702357e+002°)
1.03633460443103e+001	(-2.07472416844341e-001dB,-1.69269672936778e+002°)
1.03657325676699e+001	(-2.07334742325082e-001dB,-1.69274347763626e+002°)
1.03681196406101e+001	(-2.07197139261846e-001dB,-1.69279022183042e+002°)
1.03705072632575e+001	(-2.07059607632090e-001dB,-1.69283696195164e+002°)
1.03728954357386e+001	(-2.06922147413573e-001dB,-1.69288369800135e+002°)
1.03752841581800e+001	(-2.06784758584159e-001dB,-1.69293042998092e+002°)
1.03776734307084e+001	(-2.06647441121505e-001dB,-1.69297715789178e+002°)
1.03800632534505e+001	(-2.06510195003628e-001dB,-1.69302388173531e+002°)
1.03824536265330e+001	(-2.06373020207806e-001dB,-1.69307060151292e+002°)
1.03848445500826e+001	(-2.06235916712262e-001dB,-1.69311731722602e+002°)
1.03872360242261e+001	(-2.06098884494629e-001dB,-1.69316402887601e+002°)
1.03896280490902e+001	(-2.05961923532685e-001dB,-1.69321073646429e+002°)
1.03920206248019e+001	(-2.05825033804229e-001dB,-1.69325743999226e+002°)
1.03944137514879e+001	(-2.05688215287171e-001dB,-1.69330413946134e+002°)
1.03968074292751e+001	(-2.05551467959306e-001dB,-1.69335083487292e+002°)
1.03992016582905e+001	(-2.05414791798374e-001dB,-1.69339752622842e+002°)
1.04015964386609e+001	(-2.05278186782299e-001dB,-1.69344421352923e+002°)
1.04039917705134e+001	(-2.05141652889064e-001dB,-1.69349089677676e+002°)
1.04063876539749e+001	(-2.05005190096353e-001dB,-1.69353757597242e+002°)
1.04087840891725e+001	(-2.04868798381990e-001dB,-1.69358425111762e+002°)
1.04111810762333e+001	(-2.04732477724182e-001dB,-1.69363092221376e+002°)
1.04135786152842e+001	(-2.04596228100521e-001dB,-1.69367758926225e+002°)
1.04159767064525e+001	(-2.04460049488990e-001dB,-1.69372425226449e+002°)
1.04183753498653e+001	(-2.04323941867605e-001dB,-1.69377091122191e+002°)
1.04207745456497e+001	(-2.04187905214002e-001dB,-1.69381756613590e+002°)
1.04231742939329e+001	(-2.04051939506366e-001dB,-1.69386421700787e+002°)
1.04255745948422e+001	(-2.03916044722639e-001dB,-1.69391086383923e+002°)
1.04279754485049e+001	(-2.03780220840687e-001dB,-1.69395750663140e+002°)
1.04303768550482e+001	(-2.03644467838606e-001dB,-1.69400414538578e+002°)
1.04327788145995e+001	(-2.03508785694026e-001dB,-1.69405078010378e+002°)
1.04351813272861e+001	(-2.03373174385310e-001dB,-1.69409741078682e+002°)
1.04375843932354e+001	(-2.03237633890275e-001dB,-1.69414403743630e+002°)
1.04399880125747e+001	(-2.03102164186789e-001dB,-1.69419066005364e+002°)
1.04423921854316e+001	(-2.02966765253112e-001dB,-1.69423727864025e+002°)
1.04447969119335e+001	(-2.02831437067136e-001dB,-1.69428389319753e+002°)
1.04472021922079e+001	(-2.02696179606827e-001dB,-1.69433050372691e+002°)
1.04496080263823e+001	(-2.02560992850319e-001dB,-1.69437711022980e+002°)
1.04520144145842e+001	(-2.02425876775597e-001dB,-1.69442371270760e+002°)
1.04544213569413e+001	(-2.02290831360706e-001dB,-1.69447031116174e+002°)
1.04568288535812e+001	(-2.02155856583729e-001dB,-1.69451690559362e+002°)
1.04592369046315e+001	(-2.02020952422769e-001dB,-1.69456349600467e+002°)
1.04616455102199e+001	(-2.01886118855938e-001dB,-1.69461008239629e+002°)
1.04640546704741e+001	(-2.01751355861109e-001dB,-1.69465666476990e+002°)
1.04664643855218e+001	(-2.01616663416610e-001dB,-1.69470324312692e+002°)
1.04688746554908e+001	(-2.01482041500522e-001dB,-1.69474981746876e+002°)
1.04712854805088e+001	(-2.01347490090811e-001dB,-1.69479638779684e+002°)
1.04736968607038e+001	(-2.01213009165681e-001dB,-1.69484295411258e+002°)
1.04761087962035e+001	(-2.01078598703302e-001dB,-1.69488951641739e+002°)
1.04785212871358e+001	(-2.00944258681838e-001dB,-1.69493607471269e+002°)
1.04809343336286e+001	(-2.00809989079426e-001dB,-1.69498262899989e+002°)
1.04833479358099e+001	(-2.00675789874158e-001dB,-1.69502917928042e+002°)
1.04857620938076e+001	(-2.00541661044246e-001dB,-1.69507572555570e+002°)
1.04881768077497e+001	(-2.00407602567911e-001dB,-1.69512226782713e+002°)
1.04905920777643e+001	(-2.00273614423283e-001dB,-1.69516880609615e+002°)
1.04930079039794e+001	(-2.00139696588661e-001dB,-1.69521534036417e+002°)
1.04954242865231e+001	(-2.00005849042092e-001dB,-1.69526187063261e+002°)
1.04978412255235e+001	(-1.99872071761950e-001dB,-1.69530839690289e+002°)
1.05002587211087e+001	(-1.99738364726304e-001dB,-1.69535491917643e+002°)
1.05026767734069e+001	(-1.99604727913577e-001dB,-1.69540143745466e+002°)
1.05050953825464e+001	(-1.99471161301857e-001dB,-1.69544795173899e+002°)
1.05075145486554e+001	(-1.99337664869611e-001dB,-1.69549446203084e+002°)
1.05099342718620e+001	(-1.99204238594855e-001dB,-1.69554096833164e+002°)
1.05123545522947e+001	(-1.99070882455830e-001dB,-1.69558747064281e+002°)
1.05147753900817e+001	(-1.98937596431187e-001dB,-1.69563396896577e+002°)
1.05171967853513e+001	(-1.98804380498819e-001dB,-1.69568046330195e+002°)
1.05196187382321e+001	(-1.98671234637218e-001dB,-1.69572695365277e+002°)
1.05220412488523e+001	(-1.98538158824685e-001dB,-1.69577344001965e+002°)
1.05244643173404e+001	(-1.98405153039479e-001dB,-1.69581992240402e+002°)
1.05268879438249e+001	(-1.98272217260258e-001dB,-1.69586640080729e+002°)
1.05293121284342e+001	(-1.98139351464766e-001dB,-1.69591287523091e+002°)
1.05317368712970e+001	(-1.98006555631745e-001dB,-1.69595934567628e+002°)
1.05341621725417e+001	(-1.97873829739552e-001dB,-1.69600581214484e+002°)
1.05365880322970e+001	(-1.97741173766316e-001dB,-1.69605227463802e+002°)
1.05390144506914e+001	(-1.97608587690692e-001dB,-1.69609873315723e+002°)
1.05414414278537e+001	(-1.97476071490897e-001dB,-1.69614518770391e+002°)
1.05438689639124e+001	(-1.97343625145393e-001dB,-1.69619163827948e+002°)
1.05462970589963e+001	(-1.97211248632538e-001dB,-1.69623808488537e+002°)
1.05487257132342e+001	(-1.97078941930700e-001dB,-1.69628452752300e+002°)
1.05511549267547e+001	(-1.96946705018365e-001dB,-1.69633096619382e+002°)
1.05535846996868e+001	(-1.96814537874043e-001dB,-1.69637740089923e+002°)
1.05560150321591e+001	(-1.96682440476095e-001dB,-1.69642383164068e+002°)
1.05584459243006e+001	(-1.96550412803037e-001dB,-1.69647025841959e+002°)
1.05608773762402e+001	(-1.96418454833085e-001dB,-1.69651668123739e+002°)
1.05633093881067e+001	(-1.96286566545020e-001dB,-1.69656310009552e+002°)
1.05657419600291e+001	(-1.96154747917128e-001dB,-1.69660951499539e+002°)
1.05681750921364e+001	(-1.96022998927950e-001dB,-1.69665592593845e+002°)
1.05706087845576e+001	(-1.95891319556040e-001dB,-1.69670233292611e+002°)
1.05730430374217e+001	(-1.95759709779836e-001dB,-1.69674873595983e+002°)
1.05754778508577e+001	(-1.95628169577807e-001dB,-1.69679513504101e+002°)
1.05779132249948e+001	(-1.95496698928599e-001dB,-1.69684153017111e+002°)
1.05803491599621e+001	(-1.95365297810509e-001dB,-1.69688792135154e+002°)
1.05827856558888e+001	(-1.95233966202382e-001dB,-1.69693430858374e+002°)
1.05852227129039e+001	(-1.95102704082535e-001dB,-1.69698069186915e+002°)
1.05876603311368e+001	(-1.94971511429713e-001dB,-1.69702707120920e+002°)
1.05900985107166e+001	(-1.94840388222446e-001dB,-1.69707344660532e+002°)
1.05925372517727e+001	(-1.94709334439161e-001dB,-1.69711981805895e+002°)
1.05949765544343e+001	(-1.94578350058578e-001dB,-1.69716618557151e+002°)
1.05974164188308e+001	(-1.94447435059331e-001dB,-1.69721254914446e+002°)
1.05998568450915e+001	(-1.94316589419957e-001dB,-1.69725890877921e+002°)
1.06022978333458e+001	(-1.94185813119099e-001dB,-1.69730526447720e+002°)
1.06047393837231e+001	(-1.94055106135376e-001dB,-1.69735161623988e+002°)
1.06071814963530e+001	(-1.93924468447152e-001dB,-1.69739796406868e+002°)
1.06096241713647e+001	(-1.93793900033649e-001dB,-1.69744430796502e+002°)
1.06120674088880e+001	(-1.93663400873088e-001dB,-1.69749064793036e+002°)
1.06145112090522e+001	(-1.93532970944147e-001dB,-1.69753698396613e+002°)
1.06169555719870e+001	(-1.93402610225695e-001dB,-1.69758331607376e+002°)
1.06194004978220e+001	(-1.93272318696258e-001dB,-1.69762964425470e+002°)
1.06218459866868e+001	(-1.93142096334625e-001dB,-1.69767596851038e+002°)
1.06242920387111e+001	(-1.93011943119469e-001dB,-1.69772228884223e+002°)
1.06267386540244e+001	(-1.92881859029424e-001dB,-1.69776860525171e+002°)
1.06291858327567e+001	(-1.92751844043252e-001dB,-1.69781491774024e+002°)
1.06316335750375e+001	(-1.92621898139715e-001dB,-1.69786122630927e+002°)
1.06340818809968e+001	(-1.92492021297498e-001dB,-1.69790753096024e+002°)
1.06365307507642e+001	(-1.92362213495387e-001dB,-1.69795383169458e+002°)
1.06389801844696e+001	(-1.92232474712086e-001dB,-1.69800012851375e+002°)
